#  HZ   S   DB   R     50.0 
! Rohde & Schwarz ZVL 
! 
! 
! 
 1.950000000000000E9    -1.842593876581140E-1   1.564013724251819E2  
 1.951000000000000E9    -2.514392578848320E-1   1.568315247812909E2  
 1.952000000000000E9    -3.441802320287704E-1   1.580679659026594E2  
 1.953000000000000E9    -3.674176897558466E-1   1.562298421910651E2  
 1.954000000000000E9    -2.928107607128872E-1   1.545200566793003E2  
 1.955000000000000E9    -2.679584938842443E-1   1.571239484034855E2  
 1.956000000000000E9    -3.637654576119583E-1   1.598480047602142E2  
 1.957000000000000E9    -2.955656159995985E-1   1.561958105133155E2  
 1.958000000000000E9    -3.221138282384743E-1   1.574099526209387E2  
 1.959000000000000E9    -2.261065430437558E-1   1.552602631493415E2  
 1.960000000000000E9    -3.428929632888910E-1   1.545390856282492E2  
 1.961000000000000E9    -2.443559786337001E-1   1.565464332865568E2  
 1.962000000000000E9    -2.278044826108845E-1   1.561393355857232E2  
 1.963000000000000E9    -3.690446356242176E-1   1.572762474194990E2  
 1.964000000000000E9    -3.560684223124409E-1   1.565094726029704E2  
 1.965000000000000E9    -3.042096117330839E-1   1.562547619989431E2  
 1.966000000000000E9    -3.269798856209288E-1   1.564359558738448E2  
 1.967000000000000E9    -3.275261369283693E-1   1.542021883227253E2  
 1.968000000000000E9    -2.743490459699218E-1   1.575943112764863E2  
 1.969000000000000E9    -3.399787602131251E-1   1.559254414499745E2  
 1.970000000000000E9    -2.482704638926286E-1   1.514019105207046E2  
 1.971000000000000E9    -2.999060933573011E-1   1.555039043348598E2  
 1.972000000000000E9    -3.672473221694300E-1   1.549438809623854E2  
 1.973000000000000E9    -3.365546751714079E-1   1.547392170481996E2  
 1.974000000000000E9    -2.657160810379105E-1   1.552378842484057E2  
 1.975000000000000E9    -2.946014590644323E-1   1.563079169932452E2  
 1.976000000000000E9    -3.157951310618863E-1   1.554930972445246E2  
 1.977000000000000E9    -3.095966682859348E-1   1.542513063725429E2  
 1.978000000000000E9    -3.368302824718087E-1   1.525900226211268E2  
 1.979000000000000E9    -3.537039904240316E-1   1.531516317224689E2  
 1.980000000000000E9    -3.823280212647034E-1   1.548765135159215E2  
 1.981000000000000E9    -2.489094155973988E-1   1.529515575034671E2  
 1.982000000000000E9    -2.933431455863500E-1   1.548006585738174E2  
 1.983000000000000E9    -2.492907796133218E-1   1.539113841259047E2  
 1.984000000000000E9    -2.879362057910072E-1   1.531533641156965E2  
 1.985000000000000E9    -3.565990668843256E-1   1.535323239717371E2  
 1.986000000000000E9    -3.680347857760198E-1   1.508739426053737E2  
 1.987000000000000E9    -2.502785846062006E-1   1.545019090323330E2  
 1.988000000000000E9    -2.529678352328220E-1   1.528774085262147E2  
 1.989000000000000E9    -2.275584644656872E-1   1.545672441289536E2  
 1.990000000000000E9    -2.943187305001460E-1   1.508614338861289E2  
 1.991000000000000E9    -3.217843896896874E-1   1.511798168560594E2  
 1.992000000000000E9    -2.896656570851667E-1   1.533711482151361E2  
 1.993000000000000E9    -2.891136024535393E-1   1.516172616783657E2  
 1.994000000000000E9    -3.847946952491118E-1   1.506662371765861E2  
 1.995000000000000E9    -2.553345154691749E-1   1.522036369758154E2  
 1.996000000000000E9    -3.369385125652539E-1   1.521966635534720E2  
 1.997000000000000E9    -2.397085287676581E-1   1.498730212371627E2  
 1.998000000000000E9    -2.793549773455656E-1   1.512992102041649E2  
 1.999000000000000E9    -2.974360099897400E-1   1.518866289117547E2  
 2.000000000000000E9    -3.936435634076427E-1   1.502232910059714E2  
 2.001000000000000E9    -3.009477348418241E-1   1.486954082573994E2  
 2.002000000000000E9    -3.675671274431769E-1   1.502234745425694E2  
 2.003000000000000E9    -3.377917429604495E-1   1.509351045061196E2  
 2.004000000000000E9    -2.582855761002545E-1   1.487597793770076E2  
 2.005000000000000E9    -3.704624282636972E-1   1.507560014823829E2  
 2.006000000000000E9    -3.037314790547185E-1   1.501853581878495E2  
 2.007000000000000E9    -2.695291296793325E-1   1.513061315742111E2  
 2.008000000000000E9    -3.570569785518546E-1   1.505101099630975E2  
 2.009000000000000E9    -3.096771407140642E-1   1.489648624301963E2  
 2.010000000000000E9    -5.162429060582482E-1   1.484936373908422E2  
 2.011000000000000E9    -4.004727621397510E-1   1.491328855781964E2  
 2.012000000000000E9    -3.494380021483634E-1   1.478800298833932E2  
 2.013000000000000E9    -3.225873044620069E-1   1.473604990388377E2  
 2.014000000000000E9    -2.590382880599261E-1   1.512463944807872E2  
 2.015000000000000E9    -4.108205628149720E-1   1.492005740097140E2  
 2.016000000000000E9    -3.364071417429653E-1   1.479417490550780E2  
 2.017000000000000E9    -4.108533757575247E-1   1.494375052955670E2  
 2.018000000000000E9    -4.405856229561654E-1   1.482157297182126E2  
 2.019000000000000E9    -3.903197524271101E-1   1.492478665947615E2  
 2.020000000000000E9    -4.791835227763523E-1   1.476170231391523E2  
 2.021000000000000E9    -4.122870548572243E-1   1.447583559459658E2  
 2.022000000000000E9    -3.257177391403561E-1   1.478204444516905E2  
 2.023000000000000E9    -2.698570274975334E-1   1.488591808544107E2  
 2.024000000000000E9    -3.897630657240225E-1   1.478476418550968E2  
 2.025000000000000E9    -4.487536081471312E-1   1.463997311840288E2  
 2.026000000000000E9    -3.241871129913516E-1   1.466813199996078E2  
 2.027000000000000E9    -4.098640554288979E-1   1.479581987984595E2  
 2.028000000000000E9    -2.221737593293114E-1   1.481147201420829E2  
 2.029000000000000E9    -5.125570908402786E-1   1.448010345962782E2  
 2.030000000000000E9    -4.817300940293895E-1   1.452984946991884E2  
 2.031000000000000E9    -4.396890301377414E-1   1.454433978731126E2  
 2.032000000000000E9    -3.775490997515454E-1   1.450383591701325E2  
 2.033000000000000E9    -4.299980206745506E-1   1.470096188403542E2  
 2.034000000000000E9    -4.399266661082950E-1   1.440894342906688E2  
 2.035000000000000E9    -3.544313318025501E-1   1.436500252363701E2  
 2.036000000000000E9    -3.820600922090001E-1   1.474233215388194E2  
 2.037000000000000E9    -4.150545253052760E-1   1.455795027135859E2  
 2.038000000000000E9    -3.725943417218860E-1   1.446881442261074E2  
 2.039000000000000E9    -4.281277628084845E-1   1.434350426115855E2  
 2.040000000000000E9    -3.999914111033024E-1   1.447356004121899E2  
 2.041000000000000E9    -4.502090168284267E-1   1.437704838179192E2  
 2.042000000000000E9    -3.729026970468433E-1   1.439217748490984E2  
 2.043000000000000E9    -3.677132005369039E-1   1.432509760949673E2  
 2.044000000000000E9    -4.885340038507476E-1   1.437890384915852E2  
 2.045000000000000E9    -4.393218597374218E-1   1.446857964026785E2  
 2.046000000000000E9    -4.293999358618591E-1   1.461458835919769E2  
 2.047000000000000E9    -4.333972325770855E-1   1.463830412154025E2  
 2.048000000000000E9    -4.013713162447128E-1   1.448073331990637E2  
 2.049000000000000E9    -4.078156581430258E-1   1.423711177380651E2  
 2.050000000000000E9    -4.126431856907570E-1   1.423364900764200E2  
 2.051000000000000E9    -3.546242826037998E-1   1.433819988673876E2  
 2.052000000000000E9    -2.961535601998849E-1   1.426548802107871E2  
 2.053000000000000E9    -4.231398812209382E-1   1.417717895197351E2  
 2.054000000000000E9    -4.320632408479656E-1   1.443399283933802E2  
 2.055000000000000E9    -3.291908106798447E-1   1.452319461654104E2  
 2.056000000000000E9    -3.552212737523626E-1   1.445941241666413E2  
 2.057000000000000E9    -4.472871364898326E-1   1.404448334180268E2  
 2.058000000000000E9    -4.767900295883777E-1   1.429738405436186E2  
 2.059000000000000E9    -4.840077145955932E-1   1.434919216847468E2  
 2.060000000000000E9    -5.025339273913151E-1   1.437302075132378E2  
 2.061000000000000E9    -4.161115985274174E-1   1.411783652459920E2  
 2.062000000000000E9    -3.421622814182284E-1   1.408366905107754E2  
 2.063000000000000E9    -4.141756397500441E-1   1.410236222246776E2  
 2.064000000000000E9    -2.938561234810488E-1   1.397057431526073E2  
 2.065000000000000E9    -4.895000796633282E-1   1.406583331050505E2  
 2.066000000000000E9    -3.610338161010832E-1   1.408574074979215E2  
 2.067000000000000E9    -3.190109856512643E-1   1.410832079668575E2  
 2.068000000000000E9    -3.868400583764033E-1   1.419224104191453E2  
 2.069000000000000E9    -4.091232950826723E-1   1.413231752019165E2  
 2.070000000000000E9    -5.004298614976652E-1   1.392926271526301E2  
 2.071000000000000E9    -3.612144656376416E-1   1.398897026649715E2  
 2.072000000000000E9    -2.544535043832433E-1   1.388811418984889E2  
 2.073000000000000E9    -4.411485257682375E-1   1.402891402669831E2  
 2.074000000000000E9    -3.994806130387625E-1   1.403662663371746E2  
 2.075000000000000E9    -4.239996683646361E-1   1.398237141408096E2  
 2.076000000000000E9    -4.064545982707845E-1   1.400068580039845E2  
 2.077000000000000E9    -4.894375947941901E-1   1.396307627545619E2  
 2.078000000000000E9    -3.113509483371763E-1   1.401506161187288E2  
 2.079000000000000E9    -3.469234720026349E-1   1.379832911243943E2  
 2.080000000000000E9    -3.465823751154951E-1   1.397958223309024E2  
 2.081000000000000E9    -3.759288324070139E-1   1.394754081900014E2  
 2.082000000000000E9    -4.265528899537695E-1   1.376158941138098E2  
 2.083000000000000E9    -3.306474047717099E-1   1.385426690879422E2  
 2.084000000000000E9    -5.099103064999906E-1   1.377795713230685E2  
 2.085000000000000E9    -3.935576937624140E-1   1.382572956821407E2  
 2.086000000000000E9    -2.481631867434702E-1   1.395233564951147E2  
 2.087000000000000E9    -4.827716567202525E-1   1.363039220271583E2  
 2.088000000000000E9    -5.233573637381648E-1   1.358985611797412E2  
 2.089000000000000E9    -6.444619342930180E-1   1.348672022029622E2  
 2.090000000000000E9    -5.076238333295224E-1   1.371489900758759E2  
 2.091000000000000E9    -2.781917452706891E-1   1.398681791183123E2  
 2.092000000000000E9    -3.576565445005855E-1   1.375792665959604E2  
 2.093000000000000E9    -4.044267618180470E-1   1.370546192215437E2  
 2.094000000000000E9    -3.431035539781567E-1   1.363780326653326E2  
 2.095000000000000E9    -3.842981529884795E-1   1.377608084883975E2  
 2.096000000000000E9    -5.195234317222894E-1   1.365096783767417E2  
 2.097000000000000E9    -4.768378938852528E-1   1.360989266087963E2  
 2.098000000000000E9    -4.761266320389758E-1   1.358169918100441E2  
 2.099000000000000E9    -3.825176413691367E-1   1.365000386453891E2  
 2.100000000000000E9    -4.717287168636317E-1   1.362424289317314E2  
 2.101000000000000E9    -6.785275839872667E-1   1.336253040778288E2  
 2.102000000000000E9    -5.751309720829182E-1   1.353839987231929E2  
 2.103000000000000E9    -4.856338908902226E-1   1.324428747399532E2  
 2.104000000000000E9    -4.910516787505149E-1   1.354807639147932E2  
 2.105000000000000E9    -5.000458897463274E-1   1.331953006091726E2  
 2.106000000000000E9    -4.224936407613352E-1   1.344277473523436E2  
 2.107000000000000E9    -6.696812746465691E-1   1.341026666637930E2  
 2.108000000000000E9    -4.638193371378401E-1   1.346477584390987E2  
 2.109000000000000E9    -3.976909987525178E-1   1.350520512073729E2  
 2.110000000000000E9    -3.010736684635050E-1   1.350977857633664E2  
 2.111000000000000E9    -4.871262352848931E-1   1.341200268743524E2  
 2.112000000000000E9    -3.961919440975329E-1   1.331358309640087E2  
 2.113000000000000E9    -6.920114778518380E-1   1.332741883411628E2  
 2.114000000000000E9    -3.061268604119557E-1   1.331152080539117E2  
 2.115000000000000E9    -5.914475950964124E-1   1.324068520990157E2  
 2.116000000000000E9    -5.506374922391472E-1   1.311941114571212E2  
 2.117000000000000E9    -2.232159609545300E-1   1.332675311755166E2  
 2.118000000000000E9    -5.370284463723180E-1   1.324993549901658E2  
 2.119000000000000E9    -7.947729614418118E-1   1.307221534942605E2  
 2.120000000000000E9    -5.429195684264953E-1   1.321049230360869E2  
 2.121000000000000E9    -4.631124286088116E-1   1.328842405185474E2  
 2.122000000000000E9    -3.662120517030789E-1   1.326609566846170E2  
 2.123000000000000E9    -5.492708319087178E-1   1.316482685746194E2  
 2.124000000000000E9    -5.309638099137114E-1   1.294693034104158E2  
 2.125000000000000E9    -6.370466748846547E-1   1.286793007574124E2  
 2.126000000000000E9    -4.902503957717161E-1   1.321739166766921E2  
 2.127000000000000E9    -5.246198491384581E-1   1.317615212695210E2  
 2.128000000000000E9    -4.937093047489338E-1   1.308550444568665E2  
 2.129000000000000E9    -4.783308883379571E-1   1.308613969990581E2  
 2.130000000000000E9    -4.310978359544352E-1   1.298535110206634E2  
 2.131000000000000E9    -4.454384464167811E-1   1.310178665501425E2  
 2.132000000000000E9    -5.665965040112773E-1   1.273968252816200E2  
 2.133000000000000E9    -4.831156968835203E-1   1.288332794984685E2  
 2.134000000000000E9    -4.975254093888990E-1   1.301304331188516E2  
 2.135000000000000E9    -5.058300074428838E-1   1.309546580850821E2  
 2.136000000000000E9    -5.395923194368044E-1   1.299956350052473E2  
 2.137000000000000E9    -5.036619395770925E-1   1.287328574702108E2  
 2.138000000000000E9    -4.891357845636477E-1   1.289240142550017E2  
 2.139000000000000E9    -5.454913330080512E-1   1.289634440200993E2  
 2.140000000000000E9    -5.818571132957986E-1   1.278175666474869E2  
 2.141000000000000E9    -6.002282487537058E-1   1.265586568654448E2  
 2.142000000000000E9    -5.752309790871760E-1   1.294941515312613E2  
 2.143000000000000E9    -5.276995014079859E-1   1.308000774090758E2  
 2.144000000000000E9    -4.990139085538942E-1   1.294082716273789E2  
 2.145000000000000E9    -5.352461699959551E-1   1.269886697270643E2  
 2.146000000000000E9    -5.073093166355136E-1   1.269942989013840E2  
 2.147000000000000E9    -4.453313694757781E-1   1.250719317323350E2  
 2.148000000000000E9    -4.934698807237019E-1   1.271785692428669E2  
 2.149000000000000E9    -4.584199166601332E-1   1.266151601401485E2  
 2.150000000000000E9    -5.871308009119003E-1   1.271489985859110E2  
 2.151000000000000E9    -6.418877804131170E-1   1.258139650964370E2  
 2.152000000000000E9    -3.771816533199930E-1   1.250236553313547E2  
 2.153000000000000E9    -4.370385293587015E-1   1.256259651660818E2  
 2.154000000000000E9    -6.223235203657612E-1   1.254398722537344E2  
 2.155000000000000E9    -6.075932349284584E-1   1.281253608240583E2  
 2.156000000000000E9    -6.104152707447906E-1   1.244701207663517E2  
 2.157000000000000E9    -5.422950566817093E-1   1.270137316952568E2  
 2.158000000000000E9    -5.432457093511034E-1   1.276074030718121E2  
 2.159000000000000E9    -4.596381962582926E-1   1.238641736945436E2  
 2.160000000000000E9    -4.608703534121992E-1   1.261690428787450E2  
 2.161000000000000E9    -6.251284030905200E-1   1.247289493369235E2  
 2.162000000000000E9    -5.570558506403773E-1   1.251505301925080E2  
 2.163000000000000E9    -4.336723145023621E-1   1.239720724973954E2  
 2.164000000000000E9    -6.856038259301426E-1   1.247389888628053E2  
 2.165000000000000E9    -5.135076318178112E-1   1.253299177058752E2  
 2.166000000000000E9    -4.390548991142407E-1   1.245795200041815E2  
 2.167000000000000E9    -6.002260514079035E-1   1.242198715639465E2  
 2.168000000000000E9    -6.044645428976562E-1   1.232394547428751E2  
 2.169000000000000E9    -5.649501539167642E-1   1.243274622787575E2  
 2.170000000000000E9    -5.359428370882300E-1   1.237242511637827E2  
 2.171000000000000E9    -4.960840211623733E-1   1.224041025524911E2  
 2.172000000000000E9    -5.295558965225322E-1   1.251545971750686E2  
 2.173000000000000E9    -5.023958514379205E-1   1.235255201545831E2  
 2.174000000000000E9    -6.381368005850649E-1   1.219336640092598E2  
 2.175000000000000E9    -4.353522393983793E-1   1.212814498480709E2  
 2.176000000000000E9    -6.921716677059195E-1   1.228439281273908E2  
 2.177000000000000E9    -6.674687692516433E-1   1.202194029248191E2  
 2.178000000000000E9    -5.856102321212807E-1   1.228180116044540E2  
 2.179000000000000E9    -4.761718206185817E-1   1.218667603994441E2  
 2.180000000000000E9    -5.389630797145764E-1   1.202191754378324E2  
 2.181000000000000E9    -7.006572034574536E-1   1.198919623885328E2  
 2.182000000000000E9    -8.228374563020670E-1   1.203579952268373E2  
 2.183000000000000E9    -6.348892767393674E-1   1.208573823883332E2  
 2.184000000000000E9    -5.613633439395653E-1   1.208756606593327E2  
 2.185000000000000E9    -5.003923430665809E-1   1.191974752794951E2  
 2.186000000000000E9    -7.095466205973621E-1   1.205697159909883E2  
 2.187000000000000E9    -5.094660175140261E-1   1.180987077360929E2  
 2.188000000000000E9    -6.223992881656825E-1   1.185155677830499E2  
 2.189000000000000E9    -5.453919968973739E-1   1.177593877055442E2  
 2.190000000000000E9    -6.394755584877460E-1   1.173420671244093E2  
 2.191000000000000E9    -7.295780383003585E-1   1.185256200080334E2  
 2.192000000000000E9    -7.620532203980556E-1   1.169799458515084E2  
 2.193000000000000E9    -5.643539205792759E-1   1.191123614115526E2  
 2.194000000000000E9    -5.084427678529624E-1   1.164156575103743E2  
 2.195000000000000E9    -7.222823129770227E-1   1.169992761953467E2  
 2.196000000000000E9    -6.694141434623041E-1   1.166211036719483E2  
 2.197000000000000E9    -5.904034923761891E-1   1.185584850951481E2  
 2.198000000000000E9    -5.740356157483505E-1   1.172307521048539E2  
 2.199000000000000E9    -7.299632796556920E-1   1.165523041867575E2  
 2.200000000000000E9    -7.393696024401747E-1   1.143867895010405E2  
 2.201000000000000E9    -8.592145416077489E-1   1.163654558611040E2  
 2.202000000000000E9    -8.403353773771947E-1   1.133597186432900E2  
 2.203000000000000E9    -7.380796566582900E-1   1.153916309794200E2  
 2.204000000000000E9    -6.975194979040736E-1   1.173621579996873E2  
 2.205000000000000E9    -5.870398984117001E-1   1.143935675359264E2  
 2.206000000000000E9    -7.421151197456261E-1   1.144548881608017E2  
 2.207000000000000E9    -7.548719000405435E-1   1.129070365889204E2  
 2.208000000000000E9    -7.199189676606306E-1   1.161105533048395E2  
 2.209000000000000E9    -7.741594342145097E-1   1.147416924411608E2  
 2.210000000000000E9    -8.496347605704686E-1   1.137056142667443E2  
 2.211000000000000E9    -8.488152201322242E-1   1.124230098672588E2  
 2.212000000000000E9    -8.352702040234455E-1   1.150796211021677E2  
 2.213000000000000E9    -7.392201780981476E-1   1.130594410275426E2  
 2.214000000000000E9    -7.353935513527748E-1   1.141117393837941E2  
 2.215000000000000E9    -7.212217824724898E-1   1.133926334566378E2  
 2.216000000000000E9    -1.119323570787642   1.118416349999665E2  
 2.217000000000000E9    -6.906048278048824E-1   1.114144324396131E2  
 2.218000000000000E9    -7.649767812426987E-1   1.110157474788027E2  
 2.219000000000000E9    -8.132681623683445E-1   1.107768738368203E2  
 2.220000000000000E9    -7.824685513908122E-1   1.122529382761863E2  
 2.221000000000000E9    -9.687836007125460E-1   1.094928060189325E2  
 2.222000000000000E9    -8.659267888239886E-1   1.102854027627455E2  
 2.223000000000000E9    -6.414561668724105E-1   1.115881435871947E2  
 2.224000000000000E9    -8.255740412730657E-1   1.105009798136807E2  
 2.225000000000000E9    -8.484505739756081E-1   1.125576429964701E2  
 2.226000000000000E9    -6.924529419589723E-1   1.094439012763963E2  
 2.227000000000000E9    -8.513949090692645E-1   1.080253833411703E2  
 2.228000000000000E9    -9.138390771170767E-1   1.098678319293200E2  
 2.229000000000000E9    -7.496609767648833E-1   1.081485226515183E2  
 2.230000000000000E9    -7.128309930717919E-1   1.079723350933195E2  
 2.231000000000000E9    -8.007883896398059E-1   1.085989515580229E2  
 2.232000000000000E9    -9.590145236192833E-1   1.077092651446168E2  
 2.233000000000000E9    -8.236518077501820E-1   1.091721530429794E2  
