#  HZ   S   DB   R     50.0 
! Rohde & Schwarz ZVL 
! 
! 
! 
 1.950000000000000E9    -5.621504806071111E1  -1.230690882957352E1  
 1.951000000000000E9    -5.600660835757199E1  -7.754323570304226  
 1.952000000000000E9    -5.547207663815910E1  -9.462947702495820  
 1.953000000000000E9    -5.597505901302193E1  -1.220606986653632E1  
 1.954000000000000E9    -5.563580903961056E1  -1.353204909567571E1  
 1.955000000000000E9    -5.643659978250339E1  -1.659879468733820E1  
 1.956000000000000E9    -5.626620115373173E1  -1.570681927335175E1  
 1.957000000000000E9    -5.647894661776402E1  -1.675962671842931E1  
 1.958000000000000E9    -5.685121096875675E1  -7.998383306545501  
 1.959000000000000E9    -5.703166351117303E1  -8.393961207866274  
 1.960000000000000E9    -5.611031279927103E1  -1.409821860146832E1  
 1.961000000000000E9    -5.686002446379401E1  -1.515231936970813E1  
 1.962000000000000E9    -5.687465307076800E1  -8.517836379987704  
 1.963000000000000E9    -5.571912367553573E1  -1.171879076461447E1  
 1.964000000000000E9    -5.595887783798057E1  -8.105977260707565  
 1.965000000000000E9    -5.577850474239130E1  -9.954522092225014  
 1.966000000000000E9    -5.675924715817068E1  -1.285969885672909E1  
 1.967000000000000E9    -5.634487875879783E1  -1.244428345936526E1  
 1.968000000000000E9    -5.700831659551009E1  -1.291419539053874E1  
 1.969000000000000E9    -5.717622804560330E1  -1.165859044118669E1  
 1.970000000000000E9    -5.612258907268890E1  -9.882068716270872  
 1.971000000000000E9    -5.632034294081284E1  -1.385969314649301E1  
 1.972000000000000E9    -5.710499026027283E1  -1.188237300049088E1  
 1.973000000000000E9    -5.597399495765894E1  -1.039303414970229E1  
 1.974000000000000E9    -5.579406785529915E1  -1.154000613101381E1  
 1.975000000000000E9    -5.598101090259485E1  -9.506987705263020  
 1.976000000000000E9    -5.606586861212230E1  -5.272583321539321  
 1.977000000000000E9    -5.648226104127947E1  -1.411904650020257E1  
 1.978000000000000E9    -5.576520286321749E1  -1.324857105564615E1  
 1.979000000000000E9    -5.635865267111866E1  -1.370445102629699E1  
 1.980000000000000E9    -5.618851611049646E1  -8.987926744924744  
 1.981000000000000E9    -5.520484230900325E1  -1.580924342229168E1  
 1.982000000000000E9    -5.504996808579770E1  -1.321025102375906E1  
 1.983000000000000E9    -5.472926309960606E1  -1.205206299511341E1  
 1.984000000000000E9    -5.607510934930883E1  -1.304375387200497E1  
 1.985000000000000E9    -5.554253137425431E1  -7.526040534344324  
 1.986000000000000E9    -5.584274293784397E1  -1.893124475324938E1  
 1.987000000000000E9    -5.533774013087128E1  -1.369849981689865E1  
 1.988000000000000E9    -5.550223016075309E1  -7.515365379434281  
 1.989000000000000E9    -5.584687752626618E1  -1.755449975202198E1  
 1.990000000000000E9    -5.681032710819823E1  -8.810135331154845  
 1.991000000000000E9    -5.586395799978440E1  -2.100146299669616E1  
 1.992000000000000E9    -5.564183203572482E1  -2.095065403271452E1  
 1.993000000000000E9    -5.623122838586182E1  -1.273848384995366E1  
 1.994000000000000E9    -5.577981185525439E1  -1.597171505770611E1  
 1.995000000000000E9    -5.592883720200767E1  -1.636795547084024E1  
 1.996000000000000E9    -5.565794187551584E1  -1.442739378630561E1  
 1.997000000000000E9    -5.452553502817029E1  -1.523691311387985E1  
 1.998000000000000E9    -5.597259027299693E1  -1.252506083726933E1  
 1.999000000000000E9    -5.537912881182530E1  -8.591156559173804  
 2.000000000000000E9    -5.562783185136728E1  -1.304803533106115E1  
 2.001000000000000E9    -5.599833719398455E1  -5.940689154645612  
 2.002000000000000E9    -5.545612790022594E1  -1.152266674808625E1  
 2.003000000000000E9    -5.529681199222539E1  -1.344135971794199E1  
 2.004000000000000E9    -5.462916242677347E1  -8.587716029899019  
 2.005000000000000E9    -5.466125375023974E1  -1.216439569815519E1  
 2.006000000000000E9    -5.459585880457171E1  -1.187044714567190E1  
 2.007000000000000E9    -5.388989404945183E1  -4.648863602866241  
 2.008000000000000E9    -5.412830606708566E1  -5.161742717417900  
 2.009000000000000E9    -5.405085731880828E1  -3.516951188588835  
 2.010000000000000E9    -5.408417091594988E1  -1.328646509000684E1  
 2.011000000000000E9    -5.354894725569772E1  -1.160107361094041E1  
 2.012000000000000E9    -5.330330922582593E1  -1.689185972331510E1  
 2.013000000000000E9    -5.333049305545649E1  -1.696538080394349E1  
 2.014000000000000E9    -5.368233856218825E1  -1.497112581928452E1  
 2.015000000000000E9    -5.337689417186646E1  -1.383181080140694E1  
 2.016000000000000E9    -5.347898347838189E1  -1.391833595209070E1  
 2.017000000000000E9    -5.326366738611520E1  -1.468385663259593E1  
 2.018000000000000E9    -5.363960718280296E1  -1.065364113202305E1  
 2.019000000000000E9    -5.264628876996127E1  -1.301949510886541E1  
 2.020000000000000E9    -5.296583641492114E1  -1.280093653321164E1  
 2.021000000000000E9    -5.290845906665418E1  -1.296899367316919E1  
 2.022000000000000E9    -5.174685619481948E1  -1.413890545831237E1  
 2.023000000000000E9    -5.220872415347729E1  -8.973027972941475  
 2.024000000000000E9    -5.151712882931942E1  -1.197543248592227E1  
 2.025000000000000E9    -5.131988274603115E1  -1.488184058753003E1  
 2.026000000000000E9    -5.138317859484884E1  -1.800669562729765E1  
 2.027000000000000E9    -5.114451625129635E1  -1.856053017313587E1  
 2.028000000000000E9    -5.059081706810258E1  -1.879773827623879E1  
 2.029000000000000E9    -5.084648362170996E1  -2.301788360050768E1  
 2.030000000000000E9    -5.074001012982670E1  -2.323799379406430E1  
 2.031000000000000E9    -5.078232784967300E1  -2.340000535560910E1  
 2.032000000000000E9    -5.061440970753297E1  -2.794421871642519E1  
 2.033000000000000E9    -5.007715780877901E1  -2.924473506901984E1  
 2.034000000000000E9    -5.054795346655383E1  -3.209541879056194E1  
 2.035000000000000E9    -5.039301293622026E1  -3.540128154685247E1  
 2.036000000000000E9    -5.042475012090169E1  -3.482882534975796E1  
 2.037000000000000E9    -5.053656103433040E1  -3.731465654934772E1  
 2.038000000000000E9    -5.054683099370227E1  -3.753156648272149E1  
 2.039000000000000E9    -5.063056445175428E1  -4.072741649558315E1  
 2.040000000000000E9    -5.033144659045792E1  -4.135321558714399E1  
 2.041000000000000E9    -5.041306353060883E1  -4.327004090728355E1  
 2.042000000000000E9    -5.070638885663763E1  -4.144801786831460E1  
 2.043000000000000E9    -5.059545008319793E1  -4.627960724458703E1  
 2.044000000000000E9    -5.102011493233702E1  -4.644384124446346E1  
 2.045000000000000E9    -5.123970564889389E1  -4.710429603982394E1  
 2.046000000000000E9    -5.160409681790419E1  -4.656022909579169E1  
 2.047000000000000E9    -5.207966076105333E1  -4.647772177519526E1  
 2.048000000000000E9    -5.187861866437288E1  -4.926258647905644E1  
 2.049000000000000E9    -5.184230886623691E1  -4.465146246885565E1  
 2.050000000000000E9    -5.173431741740759E1  -4.710466566042850E1  
 2.051000000000000E9    -5.175290293701768E1  -4.790309054540484E1  
 2.052000000000000E9    -5.172323083872551E1  -4.797701373887131E1  
 2.053000000000000E9    -5.172276096470012E1  -4.332372456780975E1  
 2.054000000000000E9    -5.205251967115884E1  -4.649934725499639E1  
 2.055000000000000E9    -5.198080496824093E1  -4.102165431216805E1  
 2.056000000000000E9    -5.195375382065181E1  -4.585800063448750E1  
 2.057000000000000E9    -5.197806616034784E1  -4.601016720901935E1  
 2.058000000000000E9    -5.171309350029416E1  -4.770700184431565E1  
 2.059000000000000E9    -5.193333135261809E1  -4.131553476930777E1  
 2.060000000000000E9    -5.201196131056202E1  -4.508249144177966E1  
 2.061000000000000E9    -5.184616324356581E1  -4.282257142844301E1  
 2.062000000000000E9    -5.151541760031233E1  -4.605495664326214E1  
 2.063000000000000E9    -5.173251051318026E1  -4.008328465078906E1  
 2.064000000000000E9    -5.113073003075407E1  -4.535782118992725E1  
 2.065000000000000E9    -5.153711812789895E1  -4.439020809532703E1  
 2.066000000000000E9    -5.116432404069476E1  -4.880413592970326E1  
 2.067000000000000E9    -5.123384504934665E1  -4.439512849231941E1  
 2.068000000000000E9    -5.062719045457912E1  -4.931301326439932E1  
 2.069000000000000E9    -5.067310491265894E1  -5.403935612700598E1  
 2.070000000000000E9    -5.096539612250459E1  -4.549273894122036E1  
 2.071000000000000E9    -5.040419783414292E1  -4.723058867276734E1  
 2.072000000000000E9    -5.064709871798623E1  -4.909378169581061E1  
 2.073000000000000E9    -5.022856154040569E1  -5.443605505746554E1  
 2.074000000000000E9    -5.061295847474481E1  -5.096826835254270E1  
 2.075000000000000E9    -5.036639606589225E1  -5.161068471713837E1  
 2.076000000000000E9    -5.029891015278410E1  -5.344114470697100E1  
 2.077000000000000E9    -5.024506518861428E1  -5.878330175824696E1  
 2.078000000000000E9    -5.092623833473439E1  -5.592640978022792E1  
 2.079000000000000E9    -5.097392491244477E1  -5.780731714960759E1  
 2.080000000000000E9    -5.069540366451509E1  -5.800118728488911E1  
 2.081000000000000E9    -5.070742178575019E1  -5.805932964713443E1  
 2.082000000000000E9    -5.110484042702518E1  -5.800247092505147E1  
 2.083000000000000E9    -5.098519972530955E1  -5.571095314521379E1  
 2.084000000000000E9    -5.058774590755182E1  -6.011390829158755E1  
 2.085000000000000E9    -5.062940949745052E1  -5.593289107626683E1  
 2.086000000000000E9    -5.032314439061393E1  -5.940162302021088E1  
 2.087000000000000E9    -5.043936039364255E1  -6.118998748855271E1  
 2.088000000000000E9    -5.057143524869095E1  -6.395559387734487E1  
 2.089000000000000E9    -5.039026154222832E1  -6.441514230932715E1  
 2.090000000000000E9    -4.984029815179483E1  -6.080799244266702E1  
 2.091000000000000E9    -5.002147885095778E1  -6.526267281460838E1  
 2.092000000000000E9    -4.984092385371469E1  -6.675989098159259E1  
 2.093000000000000E9    -4.881772321874111E1  -6.461199232676998E1  
 2.094000000000000E9    -4.970111470478764E1  -6.702819346156703E1  
 2.095000000000000E9    -4.930588204580466E1  -7.037603815634054E1  
 2.096000000000000E9    -4.899150614321555E1  -7.483754874560734E1  
 2.097000000000000E9    -4.876049848887421E1  -7.749559456290031E1  
 2.098000000000000E9    -4.906192318890233E1  -7.932806529337456E1  
 2.099000000000000E9    -4.876369955670801E1  -7.940914355408870E1  
 2.100000000000000E9    -4.910516799891973E1  -8.488055659861981E1  
 2.101000000000000E9    -4.927537305072450E1  -8.874527820062762E1  
 2.102000000000000E9    -4.971391047604856E1  -9.593390051984663E1  
 2.103000000000000E9    -4.966367722155260E1  -1.023077715170192E2  
 2.104000000000000E9    -5.075736424773148E1  -1.068338158794086E2  
 2.105000000000000E9    -5.157623525769881E1  -1.118460963501496E2  
 2.106000000000000E9    -5.309639989185255E1  -1.109972067058103E2  
 2.107000000000000E9    -5.378191830888743E1  -1.133851528395382E2  
 2.108000000000000E9    -5.532539923162297E1  -1.093734202997476E2  
 2.109000000000000E9    -5.693434330303877E1  -1.080073195822054E2  
 2.110000000000000E9    -5.789736190661954E1  -1.036657723054718E2  
 2.111000000000000E9    -6.024240121657294E1  -1.010245452545492E2  
 2.112000000000000E9    -5.820001748571602E1  -8.386890943110450E1  
 2.113000000000000E9    -5.817091993150680E1  -8.208130925642020E1  
 2.114000000000000E9    -5.884705445663183E1  -6.576178886047455E1  
 2.115000000000000E9    -5.805451739560080E1  -6.244237077621348E1  
 2.116000000000000E9    -5.810470967819027E1  -5.916832821334435E1  
 2.117000000000000E9    -5.637918906711404E1  -5.482425785729975E1  
 2.118000000000000E9    -5.730977971237175E1  -5.826471384494099E1  
 2.119000000000000E9    -5.684715537458964E1  -4.640600537804088E1  
 2.120000000000000E9    -5.550440994308977E1  -5.410882956735156E1  
 2.121000000000000E9    -5.534058005592762E1  -4.228296383357173E1  
 2.122000000000000E9    -5.487598780612482E1  -4.200450743907236E1  
 2.123000000000000E9    -5.436026472938845E1  -4.569199583269892E1  
 2.124000000000000E9    -5.330740411988754E1  -4.555582189613759E1  
 2.125000000000000E9    -5.385210894895481E1  -4.594954486925700E1  
 2.126000000000000E9    -5.316046075621122E1  -4.479410392150470E1  
 2.127000000000000E9    -5.262382359585297E1  -4.072123519958117E1  
 2.128000000000000E9    -5.243317417371542E1  -4.518640464225654E1  
 2.129000000000000E9    -5.157085979211367E1  -4.591632092559431E1  
 2.130000000000000E9    -5.131338288315602E1  -4.519333119927179E1  
 2.131000000000000E9    -5.137913203575872E1  -4.821332545146942E1  
 2.132000000000000E9    -5.092260764019834E1  -5.017734038605635E1  
 2.133000000000000E9    -5.078421776390201E1  -4.816722928033653E1  
 2.134000000000000E9    -5.034484146973686E1  -4.937527015691170E1  
 2.135000000000000E9    -4.985770864704955E1  -4.900198092746033E1  
 2.136000000000000E9    -4.946632673873888E1  -5.436479676469308E1  
 2.137000000000000E9    -4.903958496602316E1  -5.204991358481449E1  
 2.138000000000000E9    -4.908922668902240E1  -5.558971921801422E1  
 2.139000000000000E9    -4.871594530942379E1  -5.640134933112438E1  
 2.140000000000000E9    -4.899354176429745E1  -5.937033813791224E1  
 2.141000000000000E9    -4.870887649931638E1  -5.843050421466471E1  
 2.142000000000000E9    -4.869830071520639E1  -5.742647291012075E1  
 2.143000000000000E9    -4.867231830068997E1  -5.963014273965850E1  
 2.144000000000000E9    -4.833787709720501E1  -5.794993454108695E1  
 2.145000000000000E9    -4.823050292922964E1  -5.946243380618073E1  
 2.146000000000000E9    -4.769835730226348E1  -6.296541942864443E1  
 2.147000000000000E9    -4.744228579068047E1  -6.168031751198410E1  
 2.148000000000000E9    -4.703925825104292E1  -6.231116593188997E1  
 2.149000000000000E9    -4.654986931750711E1  -6.370196596294309E1  
 2.150000000000000E9    -4.648970280185904E1  -6.795463057729550E1  
 2.151000000000000E9    -4.621950152893491E1  -7.202030099618922E1  
 2.152000000000000E9    -4.548807617355497E1  -6.934223142591220E1  
 2.153000000000000E9    -4.523998442055189E1  -7.087061527904005E1  
 2.154000000000000E9    -4.492362746660121E1  -7.481846419229045E1  
 2.155000000000000E9    -4.466711323053470E1  -7.656705454870686E1  
 2.156000000000000E9    -4.441295892051826E1  -8.222975491880989E1  
 2.157000000000000E9    -4.361225375003388E1  -8.396431176235518E1  
 2.158000000000000E9    -4.361732229811780E1  -8.587699344377369E1  
 2.159000000000000E9    -4.316614242810532E1  -9.108543883510532E1  
 2.160000000000000E9    -4.286309092891044E1  -9.785417338538186E1  
 2.161000000000000E9    -4.270801870311254E1  -1.016599917385316E2  
 2.162000000000000E9    -4.242524045025155E1  -1.096374900703831E2  
 2.163000000000000E9    -4.217363526000755E1  -1.174608212538638E2  
 2.164000000000000E9    -4.241184600599415E1  -1.234749446588345E2  
 2.165000000000000E9    -4.243707313001468E1  -1.296996987019002E2  
 2.166000000000000E9    -4.286693310361371E1  -1.363578915443546E2  
 2.167000000000000E9    -4.350404063743147E1  -1.452001187790170E2  
 2.168000000000000E9    -4.458314716067027E1  -1.511090696171262E2  
 2.169000000000000E9    -4.516379084687483E1  -1.591343380774850E2  
 2.170000000000000E9    -4.619858693259864E1  -1.643953423961543E2  
 2.171000000000000E9    -4.718254550596868E1  -1.674492048991282E2  
 2.172000000000000E9    -4.853148579180419E1  -1.692641171978490E2  
 2.173000000000000E9    -4.956380470681925E1  -1.755184809846263E2  
 2.174000000000000E9    -5.115040456803914E1  -1.773031362409917E2  
 2.175000000000000E9    -5.175267007239658E1  -1.767256424058144E2  
 2.176000000000000E9    -5.313029683958749E1  -1.773220467014116E2  
 2.177000000000000E9    -5.477738439763644E1  -1.720639813278626E2  
 2.178000000000000E9    -5.531383211804864E1  -1.723997781680248E2  
 2.179000000000000E9    -5.585923385309288E1  -1.672644740022446E2  
 2.180000000000000E9    -5.749736740198626E1  -1.636189607814839E2  
 2.181000000000000E9    -5.777649240122928E1  -1.672101059021023E2  
 2.182000000000000E9    -5.896920407191902E1  -1.534179301179949E2  
 2.183000000000000E9    -5.989855037974799E1  -1.520200850203092E2  
 2.184000000000000E9    -6.041867770810725E1  -1.462862353164981E2  
 2.185000000000000E9    -6.195465461713749E1  -1.490634117530737E2  
 2.186000000000000E9    -6.045533695585156E1  -1.431077767856963E2  
 2.187000000000000E9    -5.974814899139018E1  -1.263194254449172E2  
 2.188000000000000E9    -6.259030171964349E1  -1.334704565746248E2  
 2.189000000000000E9    -6.287466454146789E1  -1.204245040361276E2  
 2.190000000000000E9    -6.134813081965461E1  -1.246508550969956E2  
 2.191000000000000E9    -6.028718704889727E1  -1.041415290186315E2  
 2.192000000000000E9    -6.126306798722681E1  -1.045049870394550E2  
 2.193000000000000E9    -5.955996314174777E1  -1.075175874342415E2  
 2.194000000000000E9    -6.010933719794657E1  -1.020229919337865E2  
 2.195000000000000E9    -5.963194505648021E1  -9.714744188338267E1  
 2.196000000000000E9    -5.888853337138496E1  -9.719318491234516E1  
 2.197000000000000E9    -5.905058524367757E1  -9.845557284989269E1  
 2.198000000000000E9    -5.898216149327229E1  -9.894587237198034E1  
 2.199000000000000E9    -5.793217816205929E1  -9.833745976845052E1  
 2.200000000000000E9    -5.854327961480088E1  -9.649139985264110E1  
 2.201000000000000E9    -5.823675321172711E1  -9.843256470201104E1  
 2.202000000000000E9    -5.808147416649062E1  -9.553034515858442E1  
 2.203000000000000E9    -5.778562713743337E1  -9.922793248994829E1  
 2.204000000000000E9    -5.825383666714973E1  -9.910220242172862E1  
 2.205000000000000E9    -5.786113418995272E1  -9.377232396310329E1  
 2.206000000000000E9    -5.896436714774895E1  -9.587303676661226E1  
 2.207000000000000E9    -5.782412852347848E1  -9.096953178313561E1  
 2.208000000000000E9    -5.748996812536699E1  -9.051008075837864E1  
 2.209000000000000E9    -5.785652499340488E1  -9.190704591722657E1  
 2.210000000000000E9    -5.752208103478869E1  -9.049104871919310E1  
 2.211000000000000E9    -5.778673121217889E1  -8.919938432784235E1  
 2.212000000000000E9    -5.770451177377969E1  -8.864767107480526E1  
 2.213000000000000E9    -5.763696946868923E1  -9.217063375853905E1  
 2.214000000000000E9    -5.713210973145994E1  -9.098893572032601E1  
 2.215000000000000E9    -5.554380295810380E1  -9.118305406389624E1  
 2.216000000000000E9    -5.674252036423975E1  -9.687187666400439E1  
 2.217000000000000E9    -5.595974502724746E1  -9.409014218912752E1  
 2.218000000000000E9    -5.604672544654457E1  -1.015368575176155E2  
 2.219000000000000E9    -5.641517359704555E1  -9.543015263117046E1  
 2.220000000000000E9    -5.701275970369093E1  -9.873354643360885E1  
 2.221000000000000E9    -5.721304434324553E1  -1.004898017617418E2  
 2.222000000000000E9    -5.838209504249216E1  -1.031755362749644E2  
 2.223000000000000E9    -5.801954791489172E1  -1.039430650351247E2  
 2.224000000000000E9    -5.916118327584045E1  -1.023237445013339E2  
 2.225000000000000E9    -5.873901826775339E1  -9.373637213513119E1  
 2.226000000000000E9    -5.981750897875904E1  -1.000522448065786E2  
 2.227000000000000E9    -6.017607079542287E1  -8.742085393026731E1  
 2.228000000000000E9    -6.064176246030016E1  -7.932845111427218E1  
 2.229000000000000E9    -6.196103368123820E1  -7.416923131039926E1  
 2.230000000000000E9    -5.990661546834728E1  -6.376148542953575E1  
 2.231000000000000E9    -5.960941583211979E1  -6.133031517094771E1  
 2.232000000000000E9    -6.006525445632318E1  -6.871801536858007E1  
 2.233000000000000E9    -5.814488118014242E1  -5.862289779506764E1  
 2.234000000000000E9    -5.806804642968186E1  -5.495809207012908E1  
 2.235000000000000E9    -5.724654920986284E1  -6.190157032213651E1  
 2.236000000000000E9    -5.654616813618753E1  -5.664436372327957E1  
 2.237000000000000E9    -5.604937339626282E1  -5.711157634354163E1  
 2.238000000000000E9    -5.535198534393624E1  -6.003678753535225E1  
