#  HZ   S   DB   R     50.0 
! Rohde & Schwarz ZVL 
! 
! 
! 
 1.950000000000000E9    -1.808743479802755E-1   1.555264491805315E2  
 1.951000000000000E9    -3.003294150934107E-1   1.569290928634207E2  
 1.952000000000000E9    -3.671159295285921E-1   1.586604349436024E2  
 1.953000000000000E9    -3.931376919375982E-1   1.565068585816721E2  
 1.954000000000000E9    -3.118673089511646E-1   1.541968017413169E2  
 1.955000000000000E9    -3.169102037754713E-1   1.584330757381434E2  
 1.956000000000000E9    -3.919582808506342E-1   1.572640016248565E2  
 1.957000000000000E9    -3.262982375425607E-1   1.554969592830355E2  
 1.958000000000000E9    -3.775553480580151E-1   1.584688133204724E2  
 1.959000000000000E9    -2.775606567832070E-1   1.558270202619472E2  
 1.960000000000000E9    -3.501164837407388E-1   1.546557198909976E2  
 1.961000000000000E9    -2.777282327906817E-1   1.552312836978504E2  
 1.962000000000000E9    -3.315572748414451E-1   1.557344804098202E2  
 1.963000000000000E9    -3.248585254892022E-1   1.552971654600073E2  
 1.964000000000000E9    -3.629008186980042E-1   1.560006645409499E2  
 1.965000000000000E9    -3.051577188495404E-1   1.542250502202282E2  
 1.966000000000000E9    -3.757995661343567E-1   1.557586381691468E2  
 1.967000000000000E9    -3.505471848383825E-1   1.554805903510723E2  
 1.968000000000000E9    -3.251769494222348E-1   1.543858213298393E2  
 1.969000000000000E9    -3.529645636653975E-1   1.553029857570658E2  
 1.970000000000000E9    -3.012845792411498E-1   1.518259397289295E2  
 1.971000000000000E9    -2.939151313785201E-1   1.542146921887411E2  
 1.972000000000000E9    -3.701023399913743E-1   1.542219906017714E2  
 1.973000000000000E9    -3.446460548501693E-1   1.538827110766699E2  
 1.974000000000000E9    -2.655744480000251E-1   1.557321647097436E2  
 1.975000000000000E9    -3.107176494065732E-1   1.523215793604326E2  
 1.976000000000000E9    -3.483474078781808E-1   1.530497884147065E2  
 1.977000000000000E9    -2.865077114002208E-1   1.542586661796970E2  
 1.978000000000000E9    -4.325574628814729E-1   1.529755586948909E2  
 1.979000000000000E9    -3.633959340466855E-1   1.525260243570807E2  
 1.980000000000000E9    -3.557177735021474E-1   1.546733340033065E2  
 1.981000000000000E9    -2.923548566425259E-1   1.524816140635265E2  
 1.982000000000000E9    -3.606406947990412E-1   1.521170183965393E2  
 1.983000000000000E9    -3.259410358657887E-1   1.518931841507923E2  
 1.984000000000000E9    -3.671121562125275E-1   1.513786555243243E2  
 1.985000000000000E9    -2.913215019528672E-1   1.542332211566743E2  
 1.986000000000000E9    -2.632245098236521E-1   1.523494207900754E2  
 1.987000000000000E9    -3.402768268520985E-1   1.516736853727220E2  
 1.988000000000000E9    -2.590692839998361E-1   1.526749107439392E2  
 1.989000000000000E9    -2.942256221755358E-1   1.531045738181515E2  
 1.990000000000000E9    -3.542423530973790E-1   1.509392715953105E2  
 1.991000000000000E9    -3.098990985004471E-1   1.516005133782154E2  
 1.992000000000000E9    -3.250104180839231E-1   1.531439161251624E2  
 1.993000000000000E9    -3.219588593369880E-1   1.518218823058395E2  
 1.994000000000000E9    -4.113252554040703E-1   1.489176820646377E2  
 1.995000000000000E9    -2.395718362886619E-1   1.512002004302773E2  
 1.996000000000000E9    -2.945902823410796E-1   1.541127757512073E2  
 1.997000000000000E9    -2.810073420679055E-1   1.498588737023521E2  
 1.998000000000000E9    -3.232333617243908E-1   1.513229044121662E2  
 1.999000000000000E9    -2.994121752611722E-1   1.513390359965318E2  
 2.000000000000000E9    -3.430555571721943E-1   1.497055921424913E2  
 2.001000000000000E9    -2.978299480695467E-1   1.484501808956680E2  
 2.002000000000000E9    -3.846614039690771E-1   1.500909100964157E2  
 2.003000000000000E9    -3.260439924874401E-1   1.509991627186941E2  
 2.004000000000000E9    -2.755050496110713E-1   1.493022549975753E2  
 2.005000000000000E9    -3.851043987712308E-1   1.495834668571044E2  
 2.006000000000000E9    -2.840769277626657E-1   1.487250396050924E2  
 2.007000000000000E9    -3.641340154581075E-1   1.497050413995821E2  
 2.008000000000000E9    -3.940593177176692E-1   1.491493496884188E2  
 2.009000000000000E9    -3.053605146122372E-1   1.495694105493943E2  
 2.010000000000000E9    -4.882467032189536E-1   1.488754682687329E2  
 2.011000000000000E9    -4.515586013703327E-1   1.467111887994883E2  
 2.012000000000000E9    -3.555685394047282E-1   1.474603720450975E2  
 2.013000000000000E9    -3.181276443975989E-1   1.492896008502033E2  
 2.014000000000000E9    -2.552023738532949E-1   1.501186362069214E2  
 2.015000000000000E9    -4.996730035019900E-1   1.462995902295278E2  
 2.016000000000000E9    -3.150957611674691E-1   1.478242199084153E2  
 2.017000000000000E9    -4.559487501316247E-1   1.470305761193404E2  
 2.018000000000000E9    -4.594675515113295E-1   1.478613920546620E2  
 2.019000000000000E9    -3.757007952344922E-1   1.473862114519701E2  
 2.020000000000000E9    -5.064328805184918E-1   1.470902515736376E2  
 2.021000000000000E9    -4.067191439344045E-1   1.453644517237572E2  
 2.022000000000000E9    -3.232239974660952E-1   1.472304660290992E2  
 2.023000000000000E9    -3.068820299473544E-1   1.469226719102798E2  
 2.024000000000000E9    -3.921709037806382E-1   1.473834803113057E2  
 2.025000000000000E9    -4.498955502064628E-1   1.465762801418675E2  
 2.026000000000000E9    -3.848547605094764E-1   1.464478484528413E2  
 2.027000000000000E9    -3.967446909080314E-1   1.474440725808265E2  
 2.028000000000000E9    -2.568683507553322E-1   1.461762589026258E2  
 2.029000000000000E9    -4.987435758468352E-1   1.450310673490498E2  
 2.030000000000000E9    -4.809921484399217E-1   1.456034278171449E2  
 2.031000000000000E9    -5.094842413224706E-1   1.447488473201843E2  
 2.032000000000000E9    -3.889522454245444E-1   1.448566876618320E2  
 2.033000000000000E9    -4.975194930961652E-1   1.462095837597584E2  
 2.034000000000000E9    -4.613621581291705E-1   1.430532272586527E2  
 2.035000000000000E9    -3.898332491530220E-1   1.435050820744269E2  
 2.036000000000000E9    -3.696243602691635E-1   1.452056246951718E2  
 2.037000000000000E9    -5.028564119235991E-1   1.464085083047816E2  
 2.038000000000000E9    -4.345196178621489E-1   1.447264445540778E2  
 2.039000000000000E9    -4.682469896339770E-1   1.429083419410167E2  
 2.040000000000000E9    -3.601047432047119E-1   1.434389099457768E2  
 2.041000000000000E9    -4.764161770037834E-1   1.436985066540226E2  
 2.042000000000000E9    -4.382793763535108E-1   1.445560079968938E2  
 2.043000000000000E9    -3.812155903478426E-1   1.427081086901961E2  
 2.044000000000000E9    -5.193028211220385E-1   1.433654447120495E2  
 2.045000000000000E9    -5.054217224720067E-1   1.447965933147982E2  
 2.046000000000000E9    -4.553901785803806E-1   1.447788829846142E2  
 2.047000000000000E9    -4.145325727703738E-1   1.435758753254254E2  
 2.048000000000000E9    -3.750066216777197E-1   1.423130610965806E2  
 2.049000000000000E9    -4.213402226420882E-1   1.404525477092261E2  
 2.050000000000000E9    -4.608067232025402E-1   1.416744313838646E2  
 2.051000000000000E9    -4.496166090859111E-1   1.435476026163039E2  
 2.052000000000000E9    -2.913636249465220E-1   1.414980212419294E2  
 2.053000000000000E9    -4.348588557329959E-1   1.409446966790044E2  
 2.054000000000000E9    -4.499438206214374E-1   1.432024062233617E2  
 2.055000000000000E9    -3.305708623678587E-1   1.431417040165433E2  
 2.056000000000000E9    -3.481993096137566E-1   1.419058016190161E2  
 2.057000000000000E9    -4.909051222399983E-1   1.396386921446240E2  
 2.058000000000000E9    -4.837397902498561E-1   1.394595007109926E2  
 2.059000000000000E9    -5.243528506439469E-1   1.422459702021446E2  
 2.060000000000000E9    -4.915818984632996E-1   1.426350966762765E2  
 2.061000000000000E9    -4.082885537974075E-1   1.405399072061978E2  
 2.062000000000000E9    -4.253687792631100E-1   1.371615096428199E2  
 2.063000000000000E9    -4.787649920407651E-1   1.412284928710476E2  
 2.064000000000000E9    -3.545992610067573E-1   1.392541827884625E2  
 2.065000000000000E9    -5.437137769897938E-1   1.411501452330536E2  
 2.066000000000000E9    -4.136587716188981E-1   1.404584830574386E2  
 2.067000000000000E9    -3.857549102750065E-1   1.393426649517019E2  
 2.068000000000000E9    -4.149477443099226E-1   1.399472546813218E2  
 2.069000000000000E9    -4.314799565998861E-1   1.396872258508419E2  
 2.070000000000000E9    -5.693393187510577E-1   1.369556077612046E2  
 2.071000000000000E9    -4.022394881558176E-1   1.375639000921935E2  
 2.072000000000000E9    -3.464278839930835E-1   1.403808817245386E2  
 2.073000000000000E9    -4.855609297297045E-1   1.389343914603449E2  
 2.074000000000000E9    -4.114436229669955E-1   1.391393770068751E2  
 2.075000000000000E9    -4.616038489254296E-1   1.393597674034128E2  
 2.076000000000000E9    -4.711111396025390E-1   1.387473748948868E2  
 2.077000000000000E9    -4.530144925680220E-1   1.385090696713174E2  
 2.078000000000000E9    -3.290813541757674E-1   1.399302582560233E2  
 2.079000000000000E9    -4.337163535735525E-1   1.357425386955982E2  
 2.080000000000000E9    -4.457531988777497E-1   1.370065697824123E2  
 2.081000000000000E9    -3.782855612311524E-1   1.399012395283812E2  
 2.082000000000000E9    -4.719112127213416E-1   1.386743994535879E2  
 2.083000000000000E9    -3.599851347829008E-1   1.377191104809097E2  
 2.084000000000000E9    -5.338531431246627E-1   1.371263279506849E2  
 2.085000000000000E9    -4.186770434560276E-1   1.372531338708646E2  
 2.086000000000000E9    -3.542889048462991E-1   1.378705575815070E2  
 2.087000000000000E9    -4.157682388815131E-1   1.356926413781383E2  
 2.088000000000000E9    -5.848549758074877E-1   1.337782898995550E2  
 2.089000000000000E9    -6.250618746481876E-1   1.344224056676320E2  
 2.090000000000000E9    -5.300492273455542E-1   1.350912257860263E2  
 2.091000000000000E9    -3.415821297188164E-1   1.353543930428421E2  
 2.092000000000000E9    -4.660789572494771E-1   1.352257960860694E2  
 2.093000000000000E9    -4.792237866052410E-1   1.347740499307467E2  
 2.094000000000000E9    -3.426092775575036E-1   1.362491153898000E2  
 2.095000000000000E9    -4.473425415339197E-1   1.351675967316577E2  
 2.096000000000000E9    -4.978139193108399E-1   1.346897165663426E2  
 2.097000000000000E9    -5.531757131051545E-1   1.344957178699554E2  
 2.098000000000000E9    -5.273613991671288E-1   1.336270968314652E2  
 2.099000000000000E9    -4.609975202160079E-1   1.357279685965738E2  
 2.100000000000000E9    -5.288760452068210E-1   1.339390808961192E2  
 2.101000000000000E9    -7.522689341939673E-1   1.316669102415810E2  
 2.102000000000000E9    -5.453670825487903E-1   1.346179318669327E2  
 2.103000000000000E9    -5.095488482108512E-1   1.333096637492394E2  
 2.104000000000000E9    -4.611260212875065E-1   1.358095477803116E2  
 2.105000000000000E9    -5.390200639544474E-1   1.319697308632842E2  
 2.106000000000000E9    -4.871649397365329E-1   1.307656005763723E2  
 2.107000000000000E9    -7.110523487712815E-1   1.319256711193561E2  
 2.108000000000000E9    -5.768939858976003E-1   1.303979226757801E2  
 2.109000000000000E9    -4.131829836656764E-1   1.350288245867905E2  
 2.110000000000000E9    -3.639734180972432E-1   1.334080106945427E2  
 2.111000000000000E9    -5.173644257808011E-1   1.323077620940098E2  
 2.112000000000000E9    -4.513360585491472E-1   1.309047408797611E2  
 2.113000000000000E9    -6.968121431282226E-1   1.299028868677610E2  
 2.114000000000000E9    -3.144262745159429E-1   1.329364020375185E2  
 2.115000000000000E9    -6.116114784294252E-1   1.319931848680108E2  
 2.116000000000000E9    -5.969751384563403E-1   1.319705473096996E2  
 2.117000000000000E9    -2.386064462127991E-1   1.338398528202980E2  
 2.118000000000000E9    -5.986794566333950E-1   1.301087082689045E2  
 2.119000000000000E9    -8.261221848561717E-1   1.302463042014270E2  
 2.120000000000000E9    -5.954093446401110E-1   1.308330058857840E2  
 2.121000000000000E9    -4.999462171723956E-1   1.307406006854536E2  
 2.122000000000000E9    -4.611104070328749E-1   1.334301074923664E2  
 2.123000000000000E9    -6.005937086220516E-1   1.285920571134783E2  
 2.124000000000000E9    -5.973077096572859E-1   1.278944308776187E2  
 2.125000000000000E9    -6.431061045246193E-1   1.287750464454718E2  
 2.126000000000000E9    -5.484121438651133E-1   1.303542414542860E2  
 2.127000000000000E9    -5.815273360825304E-1   1.313072911098905E2  
 2.128000000000000E9    -5.030977724143553E-1   1.302308464534386E2  
 2.129000000000000E9    -5.639752318516714E-1   1.307281108564834E2  
 2.130000000000000E9    -4.627489280967140E-1   1.308758185177834E2  
 2.131000000000000E9    -5.436126199894577E-1   1.298300692793121E2  
 2.132000000000000E9    -5.971564862611997E-1   1.276482819770912E2  
 2.133000000000000E9    -5.261642793134381E-1   1.270958182120585E2  
 2.134000000000000E9    -5.124653356414592E-1   1.265502890303136E2  
 2.135000000000000E9    -5.210113128506259E-1   1.293386752517977E2  
 2.136000000000000E9    -6.223123076563735E-1   1.265332045807990E2  
 2.137000000000000E9    -5.417691192442695E-1   1.263285368308883E2  
 2.138000000000000E9    -5.264820569005665E-1   1.258711632977866E2  
 2.139000000000000E9    -5.384192197516255E-1   1.253145800402730E2  
 2.140000000000000E9    -7.114639738994071E-1   1.278976222713636E2  
 2.141000000000000E9    -6.798762116130405E-1   1.279431835934961E2  
 2.142000000000000E9    -5.605219274956579E-1   1.244670469772568E2  
 2.143000000000000E9    -5.812776671539423E-1   1.267797330457657E2  
 2.144000000000000E9    -4.912347985363866E-1   1.259185764959257E2  
 2.145000000000000E9    -6.514442126981171E-1   1.264143052176736E2  
 2.146000000000000E9    -6.078379669151817E-1   1.243161028463846E2  
 2.147000000000000E9    -5.536283453693069E-1   1.238680753383695E2  
 2.148000000000000E9    -5.979243823888927E-1   1.271215278086481E2  
 2.149000000000000E9    -4.886632536615771E-1   1.259216901461631E2  
 2.150000000000000E9    -6.356474520791442E-1   1.257830004772782E2  
 2.151000000000000E9    -7.376486771467884E-1   1.256874426526003E2  
 2.152000000000000E9    -4.814808022547916E-1   1.252795546596630E2  
 2.153000000000000E9    -5.365816612776523E-1   1.248907044651213E2  
 2.154000000000000E9    -6.419608965329428E-1   1.235334114615823E2  
 2.155000000000000E9    -5.894161286842983E-1   1.245046477750857E2  
 2.156000000000000E9    -6.766727085392598E-1   1.230022995006936E2  
 2.157000000000000E9    -5.538870281311431E-1   1.233135740508240E2  
 2.158000000000000E9    -5.988376941846255E-1   1.245857523640108E2  
 2.159000000000000E9    -5.650334747707594E-1   1.224137177417954E2  
 2.160000000000000E9    -4.931028210166571E-1   1.231473614934584E2  
 2.161000000000000E9    -6.760274988937627E-1   1.236494845031886E2  
 2.162000000000000E9    -6.145945391162162E-1   1.216007728064575E2  
 2.163000000000000E9    -5.027365936524476E-1   1.227625970129577E2  
 2.164000000000000E9    -7.247761042337045E-1   1.218354249927491E2  
 2.165000000000000E9    -5.615195061009863E-1   1.229145635265596E2  
 2.166000000000000E9    -5.433025582499017E-1   1.229466251004240E2  
 2.167000000000000E9    -6.653857316001894E-1   1.224481865789776E2  
 2.168000000000000E9    -6.317050818057864E-1   1.222937740394604E2  
 2.169000000000000E9    -6.258935835313880E-1   1.220218704506297E2  
 2.170000000000000E9    -5.916138981629745E-1   1.207421459077229E2  
 2.171000000000000E9    -6.018570967786635E-1   1.201016604455100E2  
 2.172000000000000E9    -6.122911430036817E-1   1.219297097500181E2  
 2.173000000000000E9    -5.519339251633364E-1   1.203895642157717E2  
 2.174000000000000E9    -6.154171453456316E-1   1.200800195746380E2  
 2.175000000000000E9    -5.496602056588055E-1   1.189459366016250E2  
 2.176000000000000E9    -7.213617440891671E-1   1.191715542415217E2  
 2.177000000000000E9    -7.226281165819610E-1   1.192685820306573E2  
 2.178000000000000E9    -6.379896094824732E-1   1.198601972064195E2  
 2.179000000000000E9    -5.377391481481602E-1   1.193855556397218E2  
 2.180000000000000E9    -5.849079627138347E-1   1.188940616850430E2  
 2.181000000000000E9    -7.006803021248883E-1   1.198811853815639E2  
 2.182000000000000E9    -8.628483805085164E-1   1.180756797265423E2  
 2.183000000000000E9    -7.323051321749816E-1   1.161534134616487E2  
 2.184000000000000E9    -6.302342063081796E-1   1.170563314921013E2  
 2.185000000000000E9    -5.139892291255408E-1   1.170570140239469E2  
 2.186000000000000E9    -7.905213359347225E-1   1.177099308510816E2  
 2.187000000000000E9    -5.498615404245284E-1   1.167834130408032E2  
 2.188000000000000E9    -6.656954955570322E-1   1.158122978566665E2  
 2.189000000000000E9    -5.558396453662801E-1   1.178083598440266E2  
 2.190000000000000E9    -6.674961496318611E-1   1.149244852376206E2  
 2.191000000000000E9    -7.539005611796449E-1   1.172276220644563E2  
 2.192000000000000E9    -9.037639355540614E-1   1.147387425460171E2  
 2.193000000000000E9    -6.945178133992748E-1   1.145140663227361E2  
 2.194000000000000E9    -6.184130706880899E-1   1.143754700478223E2  
 2.195000000000000E9    -8.059346688554652E-1   1.144074631783972E2  
 2.196000000000000E9    -7.638997338557581E-1   1.151465072314318E2  
 2.197000000000000E9    -6.778415990107725E-1   1.153675000845955E2  
 2.198000000000000E9    -7.015946811066516E-1   1.134900551055113E2  
 2.199000000000000E9    -8.201638696020648E-1   1.133014214366833E2  
 2.200000000000000E9    -7.837025126807038E-1   1.134593368617290E2  
 2.201000000000000E9    -9.698217508032001E-1   1.133182364206483E2  
 2.202000000000000E9    -9.016538786982629E-1   1.106147149957845E2  
 2.203000000000000E9    -8.175982815936408E-1   1.134295708644475E2  
 2.204000000000000E9    -8.418140290656434E-1   1.139677334105468E2  
 2.205000000000000E9    -6.290101496096728E-1   1.126044063527783E2  
 2.206000000000000E9    -8.551445050356727E-1   1.099376732060204E2  
 2.207000000000000E9    -8.285572346847128E-1   1.073148645591991E2  
 2.208000000000000E9    -7.607369164466017E-1   1.114371262058218E2  
 2.209000000000000E9    -8.277376691406977E-1   1.114008559037095E2  
 2.210000000000000E9    -9.678825377432641E-1   1.102423377312748E2  
 2.211000000000000E9    -9.297235035487831E-1   1.111877958664952E2  
 2.212000000000000E9    -9.113753226552724E-1   1.118115393520704E2  
 2.213000000000000E9    -8.483909256398999E-1   1.068475592759656E2  
 2.214000000000000E9    -8.419754833765668E-1   1.090649581208649E2  
 2.215000000000000E9    -8.449436544052749E-1   1.084133581054684E2  
 2.216000000000000E9    -1.198631905665790   1.079744443336341E2  
 2.217000000000000E9    -7.859968401741553E-1   1.077081504906902E2  
 2.218000000000000E9    -8.316172433059512E-1   1.114775371655989E2  
 2.219000000000000E9    -9.178816077938115E-1   1.096069210715510E2  
 2.220000000000000E9    -8.570105493514656E-1   1.086595024955841E2  
 2.221000000000000E9    -1.073704841215265   1.055900343761001E2  
 2.222000000000000E9    -9.984569205511094E-1   1.069012903366657E2  
 2.223000000000000E9    -7.190940547591254E-1   1.066497687653112E2  
 2.224000000000000E9    -8.952564179489644E-1   1.078807557588428E2  
 2.225000000000000E9    -9.472411540646321E-1   1.070568431152544E2  
 2.226000000000000E9    -7.698906430040785E-1   1.092470265531281E2  
 2.227000000000000E9    -1.006943975302177   1.068637724560972E2  
 2.228000000000000E9    -1.003787276331524   1.029498929795579E2  
 2.229000000000000E9    -8.533750791333193E-1   1.055033984167857E2  
 2.230000000000000E9    -7.831788613898144E-1   1.050151746411424E2  
 2.231000000000000E9    -9.266900925547902E-1   1.037404307453265E2  
 2.232000000000000E9    -1.069825089227767   1.022636902790739E2  
 2.233000000000000E9    -9.682115942847968E-1   1.062446743106667E2  
 2.234000000000000E9    -9.572280392926095E-1   1.043470710554687E2  
