#  HZ   S   DB   R     50.0 
! Rohde & Schwarz ZVL 
! 
! 
! 
 1.950000000000000E9    -5.526653585099366E1  -9.773581844557543E-1  
 1.951000000000000E9    -5.486795125491453E1  -1.007957859377569  
 1.952000000000000E9    -5.585496350897587E1  -2.174592551525896  
 1.953000000000000E9    -5.533877656757623E1  -1.859547939792805  
 1.954000000000000E9    -5.506759072523082E1  -9.936977368014180  
 1.955000000000000E9    -5.501861786862037E1   4.598774413061672  
 1.956000000000000E9    -5.537614819106495E1  -3.540821832727902  
 1.957000000000000E9    -5.555647933158415E1  -5.341209109571957  
 1.958000000000000E9    -5.516763980721456E1  -8.079807976077850  
 1.959000000000000E9    -5.489874756134950E1  -3.253597825907288  
 1.960000000000000E9    -5.591799557831494E1  -5.047998625503957  
 1.961000000000000E9    -5.503703430585117E1  -5.337671081654914  
 1.962000000000000E9    -5.521463696539008E1  -7.325829627889596  
 1.963000000000000E9    -5.493396460855802E1  -3.930290282726174  
 1.964000000000000E9    -5.477043152664778E1  -2.965688832368451  
 1.965000000000000E9    -5.433967169159228E1  -9.381222676547607E-1  
 1.966000000000000E9    -5.499751962060910E1  -3.814858223599889  
 1.967000000000000E9    -5.455884945210615E1  -7.531695028542315  
 1.968000000000000E9    -5.510944315662601E1  -6.596250627493138  
 1.969000000000000E9    -5.463726576935707E1  -9.240788102858762  
 1.970000000000000E9    -5.472430149332752E1  -3.545359191106525  
 1.971000000000000E9    -5.501621288430633E1  -1.490254467011458E1  
 1.972000000000000E9    -5.473500393640592E1  -1.410543600632139E1  
 1.973000000000000E9    -5.416972800182491E1  -1.395069116937695E1  
 1.974000000000000E9    -5.443488685787755E1  -9.848826443731570  
 1.975000000000000E9    -5.333785428270223E1  -1.642561076112739E1  
 1.976000000000000E9    -5.444683754768858E1  -8.273456492355155  
 1.977000000000000E9    -5.487557749315355E1  -8.812022111624341  
 1.978000000000000E9    -5.413437705237199E1  -1.303926008539866E1  
 1.979000000000000E9    -5.411120088712951E1  -1.337754298056075E1  
 1.980000000000000E9    -5.448169753724673E1  -1.760949750003555E1  
 1.981000000000000E9    -5.380522423366494E1  -1.209228100890388E1  
 1.982000000000000E9    -5.435047696648045E1  -8.716741567195257  
 1.983000000000000E9    -5.381389244542818E1  -1.316596845850745E1  
 1.984000000000000E9    -5.458241045354802E1  -9.469390047661006  
 1.985000000000000E9    -5.348922348534733E1  -1.173225762899859E1  
 1.986000000000000E9    -5.373606650468904E1  -1.233491212334606E1  
 1.987000000000000E9    -5.373932344855150E1  -1.602102004448110E1  
 1.988000000000000E9    -5.314198169544788E1  -1.474234107947695E1  
 1.989000000000000E9    -5.343047110366953E1  -1.714900491843112E1  
 1.990000000000000E9    -5.351955052604939E1  -1.588289819732468E1  
 1.991000000000000E9    -5.348165813790098E1  -1.614818223922153E1  
 1.992000000000000E9    -5.325832338460970E1  -1.578923268062665E1  
 1.993000000000000E9    -5.336977084556467E1  -1.870860106569752E1  
 1.994000000000000E9    -5.320575965662541E1  -1.994850925979112E1  
 1.995000000000000E9    -5.320429314837788E1  -2.555397306013491E1  
 1.996000000000000E9    -5.331705214115780E1  -2.480283938729478E1  
 1.997000000000000E9    -5.285801953442471E1  -2.461159492122350E1  
 1.998000000000000E9    -5.414609359806656E1  -2.386358125813216E1  
 1.999000000000000E9    -5.313052216118260E1  -2.140618693153611E1  
 2.000000000000000E9    -5.382945690276277E1  -2.614510008321914E1  
 2.001000000000000E9    -5.350461960772034E1  -2.076557042296966E1  
 2.002000000000000E9    -5.424838917381856E1  -2.783867988197189E1  
 2.003000000000000E9    -5.385934534101181E1  -2.617651555407396E1  
 2.004000000000000E9    -5.366807931012038E1  -2.387147170137900E1  
 2.005000000000000E9    -5.370201075595944E1  -2.434370969820881E1  
 2.006000000000000E9    -5.439344636517740E1  -2.119138756544747E1  
 2.007000000000000E9    -5.435501694824707E1  -2.888054994976842E1  
 2.008000000000000E9    -5.389538143629358E1  -2.372690001791900E1  
 2.009000000000000E9    -5.475778674711484E1  -2.504556841706067E1  
 2.010000000000000E9    -5.456225176096305E1  -2.162515872437179E1  
 2.011000000000000E9    -5.439545183164407E1  -1.768861702516376E1  
 2.012000000000000E9    -5.384171855188397E1  -2.059676393924120E1  
 2.013000000000000E9    -5.406029528008636E1  -1.738614069696454E1  
 2.014000000000000E9    -5.404159571633862E1  -2.211291992322942E1  
 2.015000000000000E9    -5.365436762369883E1  -1.702097462647211E1  
 2.016000000000000E9    -5.361917702675726E1  -2.012473583559275E1  
 2.017000000000000E9    -5.288416270803273E1  -2.016323123939341E1  
 2.018000000000000E9    -5.305200615848658E1  -2.045727165069513E1  
 2.019000000000000E9    -5.321198865647250E1  -2.369302168801590E1  
 2.020000000000000E9    -5.329295219200184E1  -2.636984031396067E1  
 2.021000000000000E9    -5.312039531640203E1  -2.122967837328413E1  
 2.022000000000000E9    -5.288726820309020E1  -2.204140204882785E1  
 2.023000000000000E9    -5.344079293735582E1  -1.807652384637718E1  
 2.024000000000000E9    -5.311151787819123E1  -2.033832109651664E1  
 2.025000000000000E9    -5.438869022982461E1  -1.199909888150352E1  
 2.026000000000000E9    -5.337834813426596E1  -1.765960611940438E1  
 2.027000000000000E9    -5.295451210167474E1  -1.397581005314583E1  
 2.028000000000000E9    -5.246394239327442E1  -1.437986381445054E1  
 2.029000000000000E9    -5.206952276520818E1  -1.889161792578211E1  
 2.030000000000000E9    -5.196657093086337E1  -1.703153100620487E1  
 2.031000000000000E9    -5.150015181409270E1  -1.802945417025435E1  
 2.032000000000000E9    -5.162431654845008E1  -2.004666587274759E1  
 2.033000000000000E9    -5.070267724054987E1  -1.978066257897505E1  
 2.034000000000000E9    -5.067315774625833E1  -2.424312022705478E1  
 2.035000000000000E9    -5.052629814312951E1  -2.371652931980738E1  
 2.036000000000000E9    -5.024142635649879E1  -2.664372874929219E1  
 2.037000000000000E9    -5.056528139001598E1  -2.832294700661254E1  
 2.038000000000000E9    -5.039400149147360E1  -2.625927732909542E1  
 2.039000000000000E9    -5.071141728280704E1  -3.248902878630626E1  
 2.040000000000000E9    -5.113716537006000E1  -3.041191442539222E1  
 2.041000000000000E9    -5.040567988564751E1  -3.372859864550642E1  
 2.042000000000000E9    -5.039957216856548E1  -3.587628129215595E1  
 2.043000000000000E9    -5.047173692500505E1  -3.570753349410963E1  
 2.044000000000000E9    -5.082001775866904E1  -3.834307727802147E1  
 2.045000000000000E9    -5.053314079544538E1  -3.783124958840328E1  
 2.046000000000000E9    -5.086205792284148E1  -3.987769678298067E1  
 2.047000000000000E9    -5.088228829641101E1  -3.820515220130883E1  
 2.048000000000000E9    -5.059901408025683E1  -4.334309998798932E1  
 2.049000000000000E9    -5.050917680324540E1  -3.923414841645941E1  
 2.050000000000000E9    -5.062282917022018E1  -4.277831236697190E1  
 2.051000000000000E9    -5.027398646490235E1  -4.448752671891421E1  
 2.052000000000000E9    -5.007654778292721E1  -4.466726683765253E1  
 2.053000000000000E9    -5.017945285127510E1  -4.259244023576409E1  
 2.054000000000000E9    -5.028569949666186E1  -4.455250233780721E1  
 2.055000000000000E9    -4.970281973041416E1  -4.392173531069465E1  
 2.056000000000000E9    -5.016115284643251E1  -4.862172278173764E1  
 2.057000000000000E9    -5.026367271150081E1  -5.112477044120256E1  
 2.058000000000000E9    -5.078111051181134E1  -5.544235680465551E1  
 2.059000000000000E9    -5.087770394883707E1  -5.008938523045622E1  
 2.060000000000000E9    -5.096601714329045E1  -4.856820041918063E1  
 2.061000000000000E9    -5.093269305565895E1  -5.283553669288402E1  
 2.062000000000000E9    -5.090454860623184E1  -4.919034715918370E1  
 2.063000000000000E9    -5.129914150269725E1  -4.980565343078109E1  
 2.064000000000000E9    -5.095413493643973E1  -4.452999104996719E1  
 2.065000000000000E9    -5.134467566371385E1  -4.897780754455921E1  
 2.066000000000000E9    -5.112331013261117E1  -4.797383054658304E1  
 2.067000000000000E9    -5.110905908638153E1  -4.719965668630474E1  
 2.068000000000000E9    -5.124155284038334E1  -4.447972316047235E1  
 2.069000000000000E9    -5.118028619316348E1  -4.898991364510513E1  
 2.070000000000000E9    -5.059898220453276E1  -5.214137864951006E1  
 2.071000000000000E9    -5.039948414781920E1  -4.945785184558541E1  
 2.072000000000000E9    -5.038050490071133E1  -4.748230648508699E1  
 2.073000000000000E9    -5.058632046835150E1  -5.469333618455021E1  
 2.074000000000000E9    -5.058758575126705E1  -5.271587811698384E1  
 2.075000000000000E9    -5.061700654848230E1  -5.276882956928402E1  
 2.076000000000000E9    -5.044997692706113E1  -5.835483571259299E1  
 2.077000000000000E9    -5.051336819538953E1  -5.750624660768390E1  
 2.078000000000000E9    -5.050866086422769E1  -5.625281356884363E1  
 2.079000000000000E9    -5.010787547983463E1  -5.764557031658544E1  
 2.080000000000000E9    -5.059705974367763E1  -5.888047830155909E1  
 2.081000000000000E9    -5.075630170114066E1  -5.902465374995950E1  
 2.082000000000000E9    -5.034687180206872E1  -6.016347854139917E1  
 2.083000000000000E9    -5.099545108983942E1  -6.269004526622561E1  
 2.084000000000000E9    -5.045337300461586E1  -6.247226402988351E1  
 2.085000000000000E9    -5.096749145281178E1  -6.258924542777621E1  
 2.086000000000000E9    -5.064941922352416E1  -6.079087858386114E1  
 2.087000000000000E9    -5.034671615698371E1  -6.031151512540598E1  
 2.088000000000000E9    -5.076280003587146E1  -5.954183414015843E1  
 2.089000000000000E9    -5.021611603659645E1  -6.302796259126764E1  
 2.090000000000000E9    -4.979575826508219E1  -6.350798307878235E1  
 2.091000000000000E9    -4.978488227951035E1  -6.591070010298178E1  
 2.092000000000000E9    -4.999112672596976E1  -6.256076915013443E1  
 2.093000000000000E9    -4.983432307360340E1  -6.475559461211597E1  
 2.094000000000000E9    -4.976681006691455E1  -6.590512279266984E1  
 2.095000000000000E9    -4.953805430379535E1  -7.117555997843529E1  
 2.096000000000000E9    -4.975042689600296E1  -7.358728062865366E1  
 2.097000000000000E9    -4.958899437339911E1  -7.647158102391003E1  
 2.098000000000000E9    -4.956205551571006E1  -7.774538898112236E1  
 2.099000000000000E9    -4.919411307679390E1  -7.816663880475669E1  
 2.100000000000000E9    -4.918403075813976E1  -8.165045688778683E1  
 2.101000000000000E9    -4.934870227938441E1  -8.741277835048274E1  
 2.102000000000000E9    -4.973273886354179E1  -9.518052821526706E1  
 2.103000000000000E9    -5.040132705340421E1  -1.000723027038638E2  
 2.104000000000000E9    -5.090776523725660E1  -1.029961499495691E2  
 2.105000000000000E9    -5.206557487415294E1  -1.118564939140344E2  
 2.106000000000000E9    -5.266351082718575E1  -1.126580217783765E2  
 2.107000000000000E9    -5.502139764369269E1  -1.145937106062452E2  
 2.108000000000000E9    -5.639611375537135E1  -1.109782470831181E2  
 2.109000000000000E9    -5.805502914302057E1  -1.127695175885636E2  
 2.110000000000000E9    -5.876057737674077E1  -9.720638328182292E1  
 2.111000000000000E9    -6.097629177378014E1  -7.975363354761316E1  
 2.112000000000000E9    -5.996972221234152E1  -7.082302732694650E1  
 2.113000000000000E9    -6.077508607771534E1  -5.956776122037140E1  
 2.114000000000000E9    -5.985174846740350E1  -5.164553296450369E1  
 2.115000000000000E9    -5.846525319111601E1  -5.026142905461247E1  
 2.116000000000000E9    -5.816762092934928E1  -4.761070125462901E1  
 2.117000000000000E9    -5.635254980206895E1  -4.500702007049507E1  
 2.118000000000000E9    -5.616107450364148E1  -4.685102880631904E1  
 2.119000000000000E9    -5.578115302779086E1  -3.971332811668567E1  
 2.120000000000000E9    -5.438844210563190E1  -4.095066312939559E1  
 2.121000000000000E9    -5.407619108057053E1  -4.419380279566413E1  
 2.122000000000000E9    -5.403160234809950E1  -3.979369399134294E1  
 2.123000000000000E9    -5.340785705575326E1  -3.894010114953306E1  
 2.124000000000000E9    -5.359958008667899E1  -4.135131421911394E1  
 2.125000000000000E9    -5.314957939927640E1  -4.058375021230270E1  
 2.126000000000000E9    -5.280949267043610E1  -4.043296362287974E1  
 2.127000000000000E9    -5.178190692338239E1  -4.231658389153456E1  
 2.128000000000000E9    -5.171774410192250E1  -3.844743918009536E1  
 2.129000000000000E9    -5.157507844922429E1  -4.383383641341814E1  
 2.130000000000000E9    -5.141885887175660E1  -3.963255493475607E1  
 2.131000000000000E9    -5.092029480403028E1  -4.206096297320887E1  
 2.132000000000000E9    -5.053813987046370E1  -4.701742942168477E1  
 2.133000000000000E9    -5.060736606765907E1  -4.510583674201980E1  
 2.134000000000000E9    -5.001600142429439E1  -4.768714148957019E1  
 2.135000000000000E9    -5.030978270336394E1  -4.474553770196620E1  
 2.136000000000000E9    -5.056390989795150E1  -4.584941411132989E1  
 2.137000000000000E9    -4.959302361834342E1  -4.538248766421430E1  
 2.138000000000000E9    -4.995456632795407E1  -4.705078565282117E1  
 2.139000000000000E9    -4.959015461349236E1  -4.901638143460261E1  
 2.140000000000000E9    -4.950566085741393E1  -4.930350905719325E1  
 2.141000000000000E9    -4.826388598167817E1  -4.695007247723513E1  
 2.142000000000000E9    -4.823903803689292E1  -4.872561163999835E1  
 2.143000000000000E9    -4.788833314732434E1  -5.165659366298625E1  
 2.144000000000000E9    -4.756480797519674E1  -5.050018633666309E1  
 2.145000000000000E9    -4.725102749126469E1  -4.990638409203473E1  
 2.146000000000000E9    -4.704803665676296E1  -5.444061544805572E1  
 2.147000000000000E9    -4.657938703040426E1  -5.453558619051007E1  
 2.148000000000000E9    -4.660961250540770E1  -5.460629277873012E1  
 2.149000000000000E9    -4.630054763911005E1  -5.856411887124173E1  
 2.150000000000000E9    -4.612757678759832E1  -6.039605687639407E1  
 2.151000000000000E9    -4.604339902244804E1  -6.204211260323467E1  
 2.152000000000000E9    -4.551709530272943E1  -6.141546474151344E1  
 2.153000000000000E9    -4.495847961287583E1  -6.087502426791539E1  
 2.154000000000000E9    -4.419328489633384E1  -6.595148928521353E1  
 2.155000000000000E9    -4.421271823020985E1  -7.018123002716472E1  
 2.156000000000000E9    -4.360600126657214E1  -7.344361580791968E1  
 2.157000000000000E9    -4.327336105125460E1  -7.636643421554649E1  
 2.158000000000000E9    -4.294018920925483E1  -7.931629502051334E1  
 2.159000000000000E9    -4.252370357117089E1  -8.465330881633639E1  
 2.160000000000000E9    -4.206532896558623E1  -8.922174511879589E1  
 2.161000000000000E9    -4.165670117908060E1  -9.419954273839343E1  
 2.162000000000000E9    -4.171361659441276E1  -1.002303407607437E2  
 2.163000000000000E9    -4.117777442301959E1  -1.084342821489211E2  
 2.164000000000000E9    -4.146889207009686E1  -1.158302616246536E2  
 2.165000000000000E9    -4.164143091893025E1  -1.236860167596385E2  
 2.166000000000000E9    -4.188691158011411E1  -1.316189250982461E2  
 2.167000000000000E9    -4.269584325039237E1  -1.403811062438222E2  
 2.168000000000000E9    -4.356585585819276E1  -1.487875632719384E2  
 2.169000000000000E9    -4.438559868993603E1  -1.554332999451297E2  
 2.170000000000000E9    -4.539907049402295E1  -1.587018642680011E2  
 2.171000000000000E9    -4.652875426407778E1  -1.637654534212642E2  
 2.172000000000000E9    -4.813512109924778E1  -1.686344724268957E2  
 2.173000000000000E9    -4.914667183892321E1  -1.733135779025513E2  
 2.174000000000000E9    -5.038929074265588E1  -1.763800747340603E2  
 2.175000000000000E9    -5.164376363178028E1  -1.748344646496368E2  
 2.176000000000000E9    -5.283837055755338E1  -1.763502854109157E2  
 2.177000000000000E9    -5.546133937679419E1  -1.763226064207495E2  
 2.178000000000000E9    -5.723888067878862E1  -1.787077554048396E2  
 2.179000000000000E9    -5.783736473240378E1  -1.719060574626277E2  
 2.180000000000000E9    -6.075400948371957E1  -1.700161454264897E2  
 2.181000000000000E9    -6.358021049884519E1  -1.593579202605289E2  
 2.182000000000000E9    -6.253195240503018E1  -1.464964385322854E2  
 2.183000000000000E9    -6.314929374348316E1  -1.330195879129985E2  
 2.184000000000000E9    -6.583734565734363E1  -1.096527126186013E2  
 2.185000000000000E9    -6.618694064986666E1  -9.533694519316893E1  
 2.186000000000000E9    -6.396000820002751E1  -9.647771340316396E1  
 2.187000000000000E9    -6.270664723981237E1  -8.499436188626331E1  
 2.188000000000000E9    -6.176418635174775E1  -8.023550304538966E1  
 2.189000000000000E9    -6.084185244950307E1  -7.507398205591285E1  
 2.190000000000000E9    -5.995849764443579E1  -6.283631597053193E1  
 2.191000000000000E9    -5.922518460164046E1  -7.180721988177136E1  
 2.192000000000000E9    -5.789909939353613E1  -6.561327388820965E1  
 2.193000000000000E9    -5.820370948837538E1  -6.903739463747466E1  
 2.194000000000000E9    -5.659513922519372E1  -6.494029272444905E1  
 2.195000000000000E9    -5.567777704875446E1  -6.985760517663807E1  
 2.196000000000000E9    -5.599552850340446E1  -6.909641336995314E1  
 2.197000000000000E9    -5.564133852712492E1  -7.224765452610416E1  
 2.198000000000000E9    -5.511987590349205E1  -7.173332912052993E1  
 2.199000000000000E9    -5.587506163604169E1  -7.336095269048525E1  
 2.200000000000000E9    -5.461181907453933E1  -7.277044738319354E1  
 2.201000000000000E9    -5.504578623787660E1  -7.087472830984419E1  
 2.202000000000000E9    -5.450564935226907E1  -7.125670948543964E1  
 2.203000000000000E9    -5.472966044114747E1  -6.934097992172998E1  
 2.204000000000000E9    -5.472976272971680E1  -7.434559684739061E1  
 2.205000000000000E9    -5.424844314852553E1  -7.393956110203247E1  
 2.206000000000000E9    -5.433991708177776E1  -7.174796104107124E1  
 2.207000000000000E9    -5.411867651164078E1  -7.271731044416465E1  
 2.208000000000000E9    -5.368457664958969E1  -7.323543188857967E1  
 2.209000000000000E9    -5.351484616685051E1  -7.031547452910687E1  
 2.210000000000000E9    -5.404279725913592E1  -6.844406812503289E1  
 2.211000000000000E9    -5.357166882620865E1  -7.394771152761301E1  
 2.212000000000000E9    -5.361354721590601E1  -7.487915582879026E1  
 2.213000000000000E9    -5.337561780343558E1  -7.290351493072784E1  
 2.214000000000000E9    -5.323274423653110E1  -7.303662880020397E1  
 2.215000000000000E9    -5.323457682967837E1  -7.032326408725275E1  
 2.216000000000000E9    -5.324768117911581E1  -7.128654865799037E1  
 2.217000000000000E9    -5.251762008789142E1  -6.971513479776793E1  
 2.218000000000000E9    -5.310794537840985E1  -7.135662961724894E1  
 2.219000000000000E9    -5.240925436293617E1  -6.819418190217303E1  
 2.220000000000000E9    -5.209293928116663E1  -6.827167144745926E1  
 2.221000000000000E9    -5.231642360989328E1  -6.910444020559831E1  
 2.222000000000000E9    -5.152121808152995E1  -6.864255893062446E1  
 2.223000000000000E9    -5.140201030857776E1  -7.437710954740601E1  
 2.224000000000000E9    -5.162299322175471E1  -7.907787974664473E1  
 2.225000000000000E9    -5.127502477672881E1  -7.848576766885519E1  
 2.226000000000000E9    -5.156097143181219E1  -7.913325982685404E1  
 2.227000000000000E9    -5.152555231134585E1  -7.674650603412458E1  
 2.228000000000000E9    -5.153494368371502E1  -8.091292647548114E1  
 2.229000000000000E9    -5.149050298793368E1  -7.722752293941524E1  
 2.230000000000000E9    -5.210788308998632E1  -7.903724078571865E1  
 2.231000000000000E9    -5.248034465157940E1  -7.885551460376725E1  
 2.232000000000000E9    -5.219080102167967E1  -7.951925295801475E1  
 2.233000000000000E9    -5.176902575117252E1  -7.651283080877469E1  
 2.234000000000000E9    -5.235920874882735E1  -7.455325895442677E1  
 2.235000000000000E9    -5.181073512044353E1  -7.583570836039991E1  
 2.236000000000000E9    -5.145114339357392E1  -7.523866709927032E1  
 2.237000000000000E9    -5.136326949456412E1  -7.611845076084104E1  
 2.238000000000000E9    -5.128432888349766E1  -7.581646426660623E1  
